Circuit: * C:\Users\User\Documents\LTspiceXVII\Analog IC Design\2_stage_opamp\opamp.asc

WARNING: Node VOUT is floating.

WARNING: Less than two connections to node VOUT.  This node is used by C1.
Instance "m6": Length shorter than recommended for a level 1 MOSFET.
Instance "m6": Width narrower than recommended for a level 1 MOSFET.
Instance "m5": Length shorter than recommended for a level 1 MOSFET.
Instance "m5": Width narrower than recommended for a level 1 MOSFET.
Instance "m1": Length shorter than recommended for a level 1 MOSFET.
Instance "m1": Width narrower than recommended for a level 1 MOSFET.
Instance "m2": Length shorter than recommended for a level 1 MOSFET.
Instance "m2": Width narrower than recommended for a level 1 MOSFET.
Instance "m7": Length shorter than recommended for a level 1 MOSFET.
Instance "m3": Length shorter than recommended for a level 1 MOSFET.
Instance "m4": Length shorter than recommended for a level 1 MOSFET.
Direct Newton iteration for .op point succeeded.
Semiconductor Device Operating Points:
                        --- MOSFET Transistors ---
Name:          m6          m5          m1          m2          m7
Model:        nmos        nmos        nmos        nmos        pmos
Id:          1.08e-04    1.05e-04    5.23e-05    5.23e-05    1.08e-04
Vgs:         7.00e-01    7.00e-01    6.71e-01    6.71e-01    3.91e-01
Vds:         5.99e-01    3.29e-01    6.61e-01    6.61e-01    1.20e+00
Vbs:         0.00e+00    0.00e+00    0.00e+00    0.00e+00    1.20e+00
Vth:         4.00e-01    4.00e-01    4.00e-01    4.00e-01   -4.00e-01
Vdsat:       3.00e-01    3.00e-01    2.71e-01    2.71e-01   -4.10e-01
Gm:          7.22e-04    6.97e-04    3.86e-04    3.86e-04    5.29e-04
Gds:         1.40e-05    1.40e-05    6.70e-06    6.70e-06    9.67e-06
Gmb:         0.00e+00    0.00e+00    0.00e+00    0.00e+00    0.00e+00
Cbd:         0.00e+00    0.00e+00    0.00e+00    0.00e+00    0.00e+00
Cbs:         0.00e+00    0.00e+00    0.00e+00    0.00e+00    0.00e+00
Cgsov:       0.00e+00    0.00e+00    0.00e+00    0.00e+00    0.00e+00
Cgdov:       0.00e+00    0.00e+00    0.00e+00    0.00e+00    0.00e+00
Cgbov:       0.00e+00    0.00e+00    0.00e+00    0.00e+00    0.00e+00
Cgs:         0.00e+00    0.00e+00    0.00e+00    0.00e+00    0.00e+00
Cgd:         0.00e+00    0.00e+00    0.00e+00    0.00e+00    0.00e+00
Cgb:         0.00e+00    0.00e+00    0.00e+00    0.00e+00    0.00e+00

Name:          m3          m4
Model:        pmos        pmos
Id:          5.23e-05    5.23e-05
Vgs:         0.00e+00    5.77e-15
Vds:         8.10e-01    8.10e-01
Vbs:         8.10e-01    8.10e-01
Vth:        -4.00e-01   -4.00e-01
Vdsat:      -4.10e-01   -4.10e-01
Gm:          2.55e-04    2.55e-04
Gds:         4.84e-06    4.84e-06
Gmb:         0.00e+00    0.00e+00
Cbd:         0.00e+00    0.00e+00
Cbs:         0.00e+00    0.00e+00
Cgsov:       0.00e+00    0.00e+00
Cgdov:       0.00e+00    0.00e+00
Cgbov:       0.00e+00    0.00e+00
Cgs:         0.00e+00    0.00e+00
Cgd:         0.00e+00    0.00e+00
Cgb:         0.00e+00    0.00e+00



Date: Sun May 15 10:26:27 2022
Total elapsed time: 0.134 seconds.

tnom = 27
temp = 27
method = trap
totiter = 21
traniter = 0
tranpoints = 0
accept = 0
rejected = 0
matrix size = 15
fillins = 0
solver = Normal
Matrix Compiler1: 622 bytes object code size
Matrix Compiler2: 1.13 KB object code size
